! (C) Copyright TOSHIBA CORPORATION 2016
! Date: 		2003-01-20
! Part Number: 		2SK3475
! Model:		RF-MOSFET


!          2SK3475         20030120

VAR        vds = 3.0

VAR        id = 0.010

!          REM     DATA    NUMBER = 1

BEGIN      ACDATA

#          HZ      S       MA      R            50

% F        n11x    n11y    n21x    n21y    n12x    n12y    n22x    n22y

   50000000  0.968   -27.0   4.995   153.3  0.0442    63.7   0.763   -37.0

  100000000  0.903   -50.1   4.237   130.7  0.0750    42.1   0.761   -67.0

  150000000  0.846   -68.0   3.484   112.7  0.0928    25.0   0.764   -88.9

  200000000  0.811   -82.1   2.835    99.2  0.0992    11.5   0.772  -104.6

  250000000  0.794   -93.3   2.379    87.3  0.1034     0.9   0.785  -116.2

  300000000  0.789  -102.6   1.982    77.1  0.1024    -8.8   0.798  -124.9

  350000000  0.791  -110.5   1.684    68.1  0.0998   -16.1   0.812  -131.9

  400000000  0.797  -117.1   1.424    59.9  0.0973   -23.0   0.825  -137.6

  450000000  0.804  -123.0   1.219    53.5  0.0929   -29.2   0.837  -142.4

  500000000  0.812  -128.3   1.063    47.1  0.0886   -34.0   0.848  -146.6

  550000000  0.821  -132.9   0.922    41.0  0.0848   -38.7   0.858  -150.2

  600000000  0.829  -137.2   0.800    36.0  0.0806   -43.0   0.867  -153.4

  650000000  0.837  -141.0   0.702    31.9  0.0766   -46.9   0.875  -156.3

  700000000  0.846  -144.5   0.623    28.2  0.0729   -50.6   0.882  -158.9

  750000000  0.852  -147.7   0.559    24.8  0.0691   -54.4   0.888  -161.4

  800000000  0.858  -150.6   0.508    21.7  0.0646   -57.7   0.894  -163.6

  850000000  0.863  -153.4   0.464    17.9  0.0603   -59.7   0.898  -165.7

  900000000  0.868  -155.9   0.421    14.5  0.0571   -61.5   0.903  -167.6

  950000000  0.873  -158.2   0.385    11.3  0.0542   -63.2   0.907  -169.5

 1000000000  0.878  -160.4   0.352     8.0  0.0519   -64.8   0.910  -171.2

 1050000000  0.881  -162.5   0.321     5.3  0.0495   -67.1   0.913  -172.8

 1100000000  0.885  -164.5   0.296     2.7  0.0468   -68.9   0.916  -174.4

 1150000000  0.889  -166.3   0.272     0.4  0.0444   -70.1   0.918  -175.9

 1200000000  0.891  -168.2   0.252    -1.8  0.0422   -71.4   0.921  -177.3

 1250000000  0.894  -169.9   0.233    -3.9  0.0402   -72.4   0.923  -178.7

 1300000000  0.897  -171.6   0.215    -5.7  0.0383   -73.3   0.924  -180.0

 1350000000  0.899  -173.2   0.199    -6.9  0.0367   -74.0   0.926   178.7

 1400000000  0.901  -174.7   0.188    -8.0  0.0353   -75.1   0.928   177.5

 1450000000  0.903  -176.2   0.178    -9.9  0.0338   -76.5   0.929   176.3

 1500000000  0.905  -177.6   0.166   -11.5  0.0322   -77.6   0.930   175.1

 1550000000  0.906  -179.0   0.155   -12.4  0.0306   -78.1   0.931   173.9

 1600000000  0.907   179.6   0.147   -12.3  0.0296   -78.3   0.932   172.8

 1650000000  0.908   178.3   0.143   -12.8  0.0288   -79.6   0.933   171.7

 1700000000  0.909   177.0   0.139   -14.9  0.0276   -81.5   0.934   170.6

 1750000000  0.910   175.7   0.132   -16.8  0.0260   -82.5   0.935   169.5

 1800000000  0.911   174.5   0.125   -17.5  0.0247   -82.9   0.936   168.5

 1850000000  0.911   173.3   0.121   -17.5  0.0238   -83.1   0.937   167.4

 1900000000  0.912   172.7   0.120   -17.6  0.0235   -83.6   0.937   166.9

 1950000000  0.913   172.1   0.120   -18.3  0.0231   -84.8   0.938   166.4

 2000000000  0.913   171.6   0.119   -20.1  0.0224   -86.2   0.938   165.9

END ACDATA



VAR        vds = 3.0

VAR        id = 0.020

!          REM     DATA    NUMBER = 2

BEGIN      ACDATA

#          HZ      S       MA      R            50

% F        n11x    n11y    n21x    n21y    n12x    n12y    n22x    n22y

   50000000  0.957   -30.9   7.316   152.4  0.0406    62.5   0.639   -43.7

  100000000  0.875   -56.4   6.083   129.9  0.0675    40.9   0.659   -76.7

  150000000  0.807   -75.3   4.928   112.6  0.0823    24.5   0.680   -98.8

  200000000  0.767   -89.5   3.995   100.1  0.0875    12.0   0.701  -113.6

  250000000  0.747  -100.3   3.343    89.0  0.0911     2.0   0.721  -124.0

  300000000  0.742  -109.1   2.791    79.7  0.0905    -7.0   0.740  -131.7

  350000000  0.744  -116.3   2.379    71.3  0.0887   -13.7   0.758  -137.7

  400000000  0.750  -122.3   2.021    63.8  0.0870   -20.2   0.774  -142.5

  450000000  0.759  -127.6   1.743    57.9  0.0837   -26.0   0.790  -146.7

  500000000  0.769  -132.3   1.526    51.9  0.0804   -30.7   0.803  -150.2

  550000000  0.780  -136.5   1.330    46.2  0.0773   -35.3   0.816  -153.4

  600000000  0.790  -140.3   1.161    41.5  0.0740   -39.4   0.828  -156.2

  650000000  0.801  -143.8   1.024    37.5  0.0707   -43.2   0.839  -158.7

  700000000  0.811  -147.0   0.913    33.9  0.0676   -46.8   0.848  -161.0

  750000000  0.819  -149.9   0.822    30.7  0.0644   -50.5   0.856  -163.2

  800000000  0.827  -152.6   0.750    27.6  0.0603   -53.7   0.863  -165.2

  850000000  0.835  -155.1   0.687    23.9  0.0566   -55.7   0.870  -167.1

  900000000  0.842  -157.5   0.624    20.6  0.0539   -57.4   0.876  -168.9

  950000000  0.848  -159.7   0.573    17.5  0.0513   -59.2   0.882  -170.6

 1000000000  0.854  -161.7   0.523    14.3  0.0493   -60.8   0.886  -172.2

 1050000000  0.859  -163.7   0.479    11.6  0.0471   -63.1   0.890  -173.7

 1100000000  0.864  -165.6   0.441     9.1  0.0445   -64.9   0.894  -175.2

 1150000000  0.868  -167.4   0.406     6.7  0.0423   -66.2   0.898  -176.6

 1200000000  0.873  -169.1   0.376     4.5  0.0403   -67.5   0.901  -178.0

 1250000000  0.876  -170.8   0.348     2.4  0.0384   -68.5   0.904  -179.3

 1300000000  0.880  -172.4   0.321     0.6  0.0366   -69.4   0.907   179.4

 1350000000  0.883  -173.9   0.298    -0.5  0.0352   -70.1   0.909   178.2

 1400000000  0.886  -175.4   0.282    -1.6  0.0340   -71.1   0.912   177.0

 1450000000  0.889  -176.8   0.266    -3.5  0.0325   -72.4   0.914   175.8

 1500000000  0.891  -178.2   0.249    -5.1  0.0310   -73.5   0.916   174.7

 1550000000  0.893  -179.6   0.233    -6.0  0.0296   -74.0   0.918   173.6

 1600000000  0.895   179.1   0.221    -6.1  0.0286   -74.3   0.919   172.4

 1650000000  0.897   177.8   0.215    -6.6  0.0279   -75.6   0.921   171.4

 1700000000  0.898   176.5   0.209    -8.7  0.0266   -77.4   0.922   170.3

 1750000000  0.899   175.3   0.198   -10.7  0.0252   -78.5   0.924   169.3

 1800000000  0.901   174.1   0.188   -11.5  0.0240   -78.7   0.925   168.2

 1850000000  0.902   172.9   0.181   -11.6  0.0231   -78.8   0.926   167.2

 1900000000  0.902   172.3   0.180   -11.7  0.0228   -79.3   0.927   166.7

 1950000000  0.903   171.7   0.180   -12.4  0.0225   -80.5   0.928   166.2

 2000000000  0.904   171.2   0.179   -14.1  0.0218   -81.8   0.929   165.7

END ACDATA



VAR        vds = 3.0

VAR        id = 0.030

!          REM     DATA    NUMBER = 3

BEGIN      ACDATA

#          HZ      S       MA      R            50

% F        n11x    n11y    n21x    n21y    n12x    n12y    n22x    n22y

   50000000  0.952   -33.2   8.631   151.9  0.0382    62.2   0.559   -49.1

  100000000  0.862   -60.0   7.100   129.4  0.0629    40.5   0.602   -83.8

  150000000  0.791   -79.6   5.708   112.6  0.0761    24.4   0.638  -105.6

  200000000  0.749   -93.9   4.623   100.6  0.0809    12.4   0.667  -119.6

  250000000  0.729  -104.6   3.861    89.9  0.0841     2.8   0.691  -129.2

  300000000  0.722  -113.1   3.229    80.9  0.0836    -5.7   0.713  -136.2

  350000000  0.724  -120.0   2.758    73.0  0.0824   -12.2   0.732  -141.6

  400000000  0.730  -125.7   2.350    65.8  0.0810   -18.4   0.750  -145.9

  450000000  0.739  -130.6   2.034    60.1  0.0780   -24.0   0.766  -149.6

  500000000  0.750  -135.0   1.787    54.3  0.0753   -28.5   0.780  -152.8

  550000000  0.760  -138.9   1.562    48.8  0.0727   -32.9   0.794  -155.6

  600000000  0.772  -142.4   1.369    44.2  0.0699   -37.0   0.807  -158.1

  650000000  0.782  -145.7   1.211    40.3  0.0670   -40.7   0.818  -160.4

  700000000  0.793  -148.7   1.084    36.8  0.0642   -44.3   0.828  -162.5

  750000000  0.802  -151.4   0.978    33.6  0.0613   -47.9   0.837  -164.5

  800000000  0.811  -154.0   0.894    30.6  0.0577   -51.2   0.846  -166.4

  850000000  0.819  -156.4   0.820    26.9  0.0543   -53.1   0.853  -168.2

  900000000  0.827  -158.6   0.746    23.6  0.0518   -54.9   0.860  -169.9

  950000000  0.834  -160.7   0.686    20.5  0.0494   -56.6   0.866  -171.5

 1000000000  0.841  -162.6   0.627    17.3  0.0475   -58.2   0.871  -173.0

 1050000000  0.846  -164.5   0.575    14.6  0.0455   -60.5   0.876  -174.5

 1100000000  0.852  -166.4   0.529    12.1  0.0431   -62.3   0.881  -175.9

 1150000000  0.857  -168.1   0.488     9.8  0.0410   -63.6   0.885  -177.2

 1200000000  0.861  -169.8   0.452     7.5  0.0391   -64.9   0.889  -178.6

 1250000000  0.866  -171.4   0.419     5.4  0.0373   -66.0   0.892  -179.8

 1300000000  0.870  -172.9   0.388     3.6  0.0357   -66.9   0.895   179.0

 1350000000  0.874  -174.4   0.360     2.5  0.0343   -67.5   0.898   177.8

 1400000000  0.877  -175.9   0.341     1.4  0.0331   -68.7   0.901   176.6

 1450000000  0.880  -177.3   0.322    -0.5  0.0318   -70.1   0.904   175.5

 1500000000  0.883  -178.6   0.301    -2.1  0.0303   -71.1   0.906   174.3

 1550000000  0.885  -180.0   0.281    -3.1  0.0289   -71.6   0.908   173.2

 1600000000  0.887   178.7   0.267    -3.2  0.0280   -71.8   0.910   172.2

 1650000000  0.889   177.4   0.260    -3.7  0.0272   -73.0   0.912   171.1

 1700000000  0.891   176.2   0.252    -5.9  0.0260   -74.8   0.914   170.0

 1750000000  0.893   175.0   0.240    -7.9  0.0246   -75.7   0.916   169.0

 1800000000  0.894   173.8   0.227    -8.8  0.0234   -75.8   0.918   168.0

 1850000000  0.895   172.6   0.219    -9.0  0.0225   -75.8   0.919   167.0

 1900000000  0.896   172.0   0.218    -9.0  0.0222   -76.3   0.920   166.5

 1950000000  0.897   171.5   0.218    -9.8  0.0219   -77.3   0.921   166.0

 2000000000  0.898   170.9   0.216   -11.5  0.0212   -78.7   0.922   165.6

END ACDATA



VAR        vds = 3.0

VAR        id = 0.050

!          REM     DATA    NUMBER = 4

BEGIN      ACDATA

#          HZ      S       MA      R            50

% F        n11x    n11y    n21x    n21y    n12x    n12y    n22x    n22y

   50000000  0.948   -35.8  10.066   151.4  0.0350    61.8   0.458   -58.5

  100000000  0.852   -64.3   8.189   129.1  0.0571    40.2   0.540   -94.5

  150000000  0.780   -84.6   6.534   112.7  0.0686    24.5   0.597  -115.1

  200000000  0.738   -99.2   5.291   101.2  0.0728    13.2   0.635  -127.7

  250000000  0.716  -109.7   4.414    91.0  0.0758     4.0   0.664  -136.1

  300000000  0.708  -118.0   3.698    82.5  0.0755    -4.1   0.688  -142.1

  350000000  0.709  -124.5   3.166    74.9  0.0747   -10.1   0.708  -146.7

  400000000  0.714  -129.9   2.707    68.1  0.0737   -16.1   0.726  -150.4

  450000000  0.722  -134.4   2.353    62.7  0.0713   -21.4   0.742  -153.5

  500000000  0.732  -138.4   2.076    57.1  0.0692   -25.7   0.757  -156.3

  550000000  0.742  -142.0   1.822    51.8  0.0672   -29.9   0.772  -158.7

  600000000  0.753  -145.2   1.604    47.4  0.0648   -33.8   0.785  -160.8

  650000000  0.764  -148.2   1.426    43.6  0.0624   -37.4   0.797  -162.8

  700000000  0.775  -151.0   1.280    40.2  0.0600   -40.9   0.807  -164.7

  750000000  0.784  -153.5   1.160    37.0  0.0575   -44.4   0.817  -166.5

  800000000  0.794  -155.9   1.064    33.9  0.0542   -47.7   0.825  -168.2

  850000000  0.803  -158.1   0.977    30.3  0.0513   -49.5   0.833  -169.8

  900000000  0.811  -160.1   0.891    27.0  0.0491   -51.3   0.841  -171.4

  950000000  0.819  -162.1   0.821    23.9  0.0470   -53.1   0.847  -172.9

 1000000000  0.825  -163.9   0.752    20.7  0.0453   -54.8   0.853  -174.3

 1050000000  0.831  -165.7   0.690    18.1  0.0434   -57.0   0.858  -175.6

 1100000000  0.838  -167.5   0.637    15.5  0.0412   -58.8   0.863  -177.0

 1150000000  0.843  -169.1   0.588    13.2  0.0393   -60.1   0.868  -178.2

 1200000000  0.848  -170.7   0.546    11.0  0.0375   -61.3   0.872  -179.4

 1250000000  0.854  -172.2   0.506     8.8  0.0359   -62.4   0.876   179.4

 1300000000  0.858  -173.7   0.469     7.0  0.0344   -63.3   0.879   178.2

 1350000000  0.863  -175.1   0.436     5.8  0.0331   -64.0   0.883   177.1

 1400000000  0.866  -176.6   0.413     4.7  0.0320   -65.1   0.886   176.0

 1450000000  0.869  -177.9   0.390     2.8  0.0307   -66.4   0.889   174.9

 1500000000  0.873  -179.2   0.366     1.2  0.0293   -67.4   0.892   173.8

 1550000000  0.876   179.5   0.342     0.2  0.0280   -67.8   0.895   172.8

 1600000000  0.878   178.2   0.325     0.1  0.0271   -67.9   0.897   171.7

 1650000000  0.881   176.9   0.317    -0.5  0.0264   -69.1   0.900   170.7

 1700000000  0.883   175.7   0.307    -2.7  0.0253   -70.7   0.902   169.7

 1750000000  0.884   174.5   0.292    -4.8  0.0240   -71.6   0.905   168.7

 1800000000  0.886   173.4   0.277    -5.6  0.0228   -71.8   0.907   167.7

 1850000000  0.888   172.2   0.267    -5.9  0.0220   -71.7   0.909   166.7

 1900000000  0.889   171.6   0.265    -6.0  0.0218   -72.2   0.910   166.2

 1950000000  0.890   171.1   0.265    -6.8  0.0215   -73.2   0.911   165.7

 2000000000  0.891   170.6   0.263    -8.6  0.0209   -74.5   0.913   165.3

END ACDATA



VAR        vds = 3.0

VAR        id = 0.070

!          REM     DATA    NUMBER = 5

BEGIN      ACDATA

#          HZ      S       MA      R            50

% F        n11x    n11y    n21x    n21y    n12x    n12y    n22x    n22y

   50000000  0.946   -37.3  10.778   151.3  0.0329    61.6   0.394   -67.1

  100000000  0.850   -66.7   8.728   129.0  0.0534    40.2   0.506  -102.5

  150000000  0.778   -87.4   6.943   113.0  0.0640    24.8   0.577  -121.7

  200000000  0.736  -102.1   5.626   101.8  0.0679    13.8   0.621  -133.1

  250000000  0.714  -112.7   4.691    91.7  0.0708     4.9   0.653  -140.7

  300000000  0.706  -120.8   3.936    83.5  0.0706    -2.8   0.677  -146.1

  350000000  0.705  -127.2   3.376    76.1  0.0700    -8.7   0.697  -150.2

  400000000  0.709  -132.4   2.892    69.6  0.0693   -14.6   0.715  -153.5

  450000000  0.716  -136.8   2.522    64.3  0.0672   -19.6   0.731  -156.2

  500000000  0.725  -140.6   2.229    58.8  0.0654   -23.8   0.746  -158.7

  550000000  0.735  -144.0   1.961    53.6  0.0636   -27.9   0.760  -160.8

  600000000  0.745  -147.1   1.732    49.3  0.0615   -31.7   0.773  -162.8

  650000000  0.755  -149.9   1.543    45.6  0.0594   -35.2   0.785  -164.6

  700000000  0.766  -152.5   1.390    42.2  0.0573   -38.6   0.796  -166.3

  750000000  0.775  -154.9   1.262    39.1  0.0550   -42.2   0.805  -167.9

  800000000  0.785  -157.1   1.160    36.0  0.0520   -45.3   0.814  -169.5

  850000000  0.794  -159.2   1.068    32.4  0.0492   -47.3   0.822  -171.0

  900000000  0.802  -161.2   0.975    29.1  0.0473   -49.0   0.830  -172.5

  950000000  0.810  -163.1   0.899    26.0  0.0454   -50.8   0.836  -173.9

 1000000000  0.817  -164.8   0.825    22.8  0.0438   -52.6   0.842  -175.2

 1050000000  0.824  -166.5   0.758    20.2  0.0420   -54.8   0.847  -176.5

 1100000000  0.830  -168.2   0.701    17.6  0.0400   -56.6   0.852  -177.8

 1150000000  0.836  -169.8   0.647    15.3  0.0383   -57.8   0.856  -179.0

 1200000000  0.841  -171.3   0.601    13.0  0.0366   -59.0   0.861   179.9

 1250000000  0.847  -172.8   0.558    10.9  0.0350   -60.0   0.865   178.7

 1300000000  0.851  -174.3   0.517     9.0  0.0336   -60.9   0.869   177.6

 1350000000  0.856  -175.7   0.481     7.8  0.0323   -61.6   0.872   176.6

 1400000000  0.860  -177.0   0.456     6.7  0.0312   -62.7   0.876   175.5

 1450000000  0.863  -178.4   0.432     4.8  0.0299   -63.8   0.879   174.4

 1500000000  0.867  -179.7   0.405     3.1  0.0286   -64.8   0.882   173.4

 1550000000  0.870   179.1   0.379     2.1  0.0273   -65.2   0.885   172.4

 1600000000  0.873   177.8   0.361     2.0  0.0265   -65.3   0.889   171.4

 1650000000  0.875   176.6   0.351     1.3  0.0259   -66.3   0.892   170.4

 1700000000  0.878   175.4   0.341    -0.9  0.0248   -68.0   0.894   169.4

 1750000000  0.880   174.2   0.324    -2.9  0.0235   -68.8   0.897   168.4

 1800000000  0.882   173.1   0.307    -3.9  0.0225   -68.9   0.900   167.4

 1850000000  0.884   171.9   0.297    -4.1  0.0217   -68.8   0.902   166.4

 1900000000  0.885   171.3   0.295    -4.2  0.0215   -69.3   0.904   166.0

 1950000000  0.886   170.8   0.295    -5.1  0.0212   -70.3   0.905   165.5

 2000000000  0.887   170.3   0.293    -6.8  0.0206   -71.6   0.906   165.1

END ACDATA



VAR        vds = 3.0

VAR        id = 0.100

!          REM     DATA    NUMBER = 6

BEGIN      ACDATA

#          HZ      S       MA      R            50

% F        n11x    n11y    n21x    n21y    n12x    n12y    n22x    n22y

   50000000  0.947   -38.5  11.262   151.4  0.0306    61.6   0.333   -79.9

  100000000  0.851   -68.7   9.104   129.3  0.0495    40.5   0.479  -112.3

  150000000  0.780   -89.8   7.230   113.5  0.0593    25.4   0.562  -129.0

  200000000  0.739  -104.7   5.869   102.5  0.0628    14.7   0.612  -139.0

  250000000  0.717  -115.4   4.895    92.7  0.0657     6.0   0.645  -145.7

  300000000  0.708  -123.5   4.115    84.7  0.0658    -1.5   0.670  -150.3

  350000000  0.706  -129.8   3.535    77.5  0.0654    -7.1   0.690  -153.9

  400000000  0.709  -134.8   3.035    71.2  0.0648   -12.7   0.707  -156.8

  450000000  0.714  -139.1   2.654    66.0  0.0631   -17.7   0.723  -159.2

  500000000  0.722  -142.8   2.352    60.6  0.0616   -21.7   0.737  -161.3

  550000000  0.731  -146.0   2.074    55.6  0.0602   -25.7   0.751  -163.2

  600000000  0.740  -148.9   1.836    51.4  0.0583   -29.5   0.763  -164.9

  650000000  0.750  -151.6   1.642    47.7  0.0565   -33.0   0.775  -166.5

  700000000  0.760  -154.1   1.483    44.4  0.0546   -36.3   0.785  -168.1

  750000000  0.770  -156.4   1.350    41.3  0.0525   -39.9   0.795  -169.6

  800000000  0.778  -158.5   1.244    38.2  0.0498   -42.9   0.803  -171.1

  850000000  0.787  -160.4   1.146    34.6  0.0473   -44.7   0.811  -172.5

  900000000  0.795  -162.3   1.049    31.3  0.0455   -46.5   0.819  -173.8

  950000000  0.803  -164.1   0.968    28.2  0.0437   -48.2   0.825  -175.1

 1000000000  0.810  -165.7   0.889    25.0  0.0423   -49.9   0.830  -176.4

 1050000000  0.817  -167.4   0.819    22.3  0.0407   -52.1   0.836  -177.6

 1100000000  0.823  -169.0   0.757    19.8  0.0388   -53.8   0.840  -178.8

 1150000000  0.829  -170.5   0.700    17.4  0.0371   -55.1   0.845  -179.9

 1200000000  0.835  -172.1   0.651    15.2  0.0355   -56.3   0.849   179.0

 1250000000  0.840  -173.5   0.605    13.1  0.0340   -57.3   0.853   178.0

 1300000000  0.845  -174.9   0.561    11.2  0.0326   -58.1   0.857   176.9

 1350000000  0.850  -176.2   0.523    10.0  0.0315   -58.8   0.861   175.9

 1400000000  0.854  -177.6   0.496     8.8  0.0305   -59.8   0.864   174.9

 1450000000  0.857  -178.8   0.470     6.9  0.0293   -61.0   0.868   173.9

 1500000000  0.861   179.9   0.440     5.2  0.0281   -61.9   0.871   172.9

 1550000000  0.864   178.7   0.412     4.1  0.0268   -62.3   0.875   171.9

 1600000000  0.868   177.4   0.392     4.0  0.0261   -62.4   0.878   170.9

 1650000000  0.870   176.2   0.382     3.3  0.0255   -63.5   0.882   170.0

 1700000000  0.873   175.0   0.371     1.1  0.0244   -65.2   0.885   169.0

